!Mini-Circuits Laboratory
!S-Parameters
!Model: QCH-272+
!Run/Date Code:1727 
!DATA FOR: UNIT # 2
!Unit soldered on TB-884+
!Freq	S11:SOLT4(ON)	S12:SOLT4(ON)	S13:SOLT4(ON)	S14:SOLT4(ON)
!	S21:SOLT4(ON)	S22:SOLT4(ON)	S23:SOLT4(ON)	S24:SOLT4(ON)
!	S31:SOLT4(ON)	S32:SOLT4(ON)	S33:SOLT4(ON)	S34:SOLT4(ON)
!	S41:SOLT4(ON)	S42:SOLT4(ON)	S43:SOLT4(ON)	S44:SOLT4(ON)
!PortZ  Port1:50+j0    Port2:50+j0    Port3:50+j0    Port4:50+j0
!Above PortZ is port z conversion or system Z0 setting when saving the data.
!When reading, reference impedance value at option line is always used.
!Connection: PORT-1 - pin<1>;   PORT-2 - pin<2>;    PORT-3- pin<3>; PORT-4- pin<4> 
!PORT EXTENSION DONE ON TEST BOARD WITH LOSS ON AND MISMATCH ON
!Agilent Technologies,E5071C,MY46101856,A.08.10
!Date: Sun Feb 25 08:46:06 2018

# Hz S RI R 50
10000000	-3.871033e-004	-6.040039e-004	-6.640834e-005	6.059354e-004	9.924129e-001	-3.540450e-002	6.576480e-004	1.478032e-002
	-7.133685e-005	6.067519e-004	1.237515e-003	-9.111003e-004	6.609188e-004	1.477579e-002	9.913945e-001	-3.545051e-002
	9.915611e-001	-3.533789e-002	6.593622e-004	1.477632e-002	-3.404213e-004	-1.093699e-003	-5.567056e-005	6.072751e-004
	6.559517e-004	1.477139e-002	9.915459e-001	-3.545468e-002	-5.514518e-005	6.081228e-004	1.139305e-003	-9.586982e-004
15000000	-2.224719e-004	-1.765607e-003	-6.816835e-006	9.276677e-004	9.914495e-001	-5.258780e-002	1.348612e-003	2.210729e-002
	-1.539946e-005	9.296998e-004	1.290785e-003	-1.972847e-003	1.340313e-003	2.210226e-002	9.902267e-001	-5.271490e-002
	9.905450e-001	-5.253100e-002	1.340972e-003	2.210368e-002	-9.921925e-004	-2.130450e-003	1.025647e-005	9.033330e-004
	1.337775e-003	2.209146e-002	9.903316e-001	-5.260866e-002	9.356372e-006	9.040921e-004	1.104701e-003	-2.228997e-003
20000000	2.139016e-005	-1.806176e-003	2.374415e-005	1.287088e-003	9.901356e-001	-7.000026e-002	2.273023e-003	2.940315e-002
	9.463615e-006	1.280475e-003	2.298963e-003	-1.980671e-003	2.273922e-003	2.939869e-002	9.889676e-001	-6.995118e-002
	9.893423e-001	-6.977064e-002	2.271714e-003	2.940290e-002	-2.017785e-005	-1.915113e-003	1.765313e-005	1.276313e-003
	2.268699e-003	2.937954e-002	9.890208e-001	-6.987444e-002	2.156998e-005	1.274086e-003	2.070557e-003	-1.829193e-003
25000000	2.355607e-004	-2.301373e-003	9.136004e-005	1.637480e-003	9.884624e-001	-8.726627e-002	3.447192e-003	3.666364e-002
	7.420071e-005	1.633963e-003	2.585912e-003	-2.412819e-003	3.456939e-003	3.665497e-002	9.872751e-001	-8.711007e-002
	9.877121e-001	-8.692655e-002	3.456257e-003	3.666888e-002	3.935448e-004	-2.262690e-003	8.250985e-005	1.640138e-003
	3.449315e-003	3.663324e-002	9.875253e-001	-8.711679e-002	8.222684e-005	1.635353e-003	2.549356e-003	-2.217467e-003
30000000	3.201875e-004	-3.227090e-003	2.056151e-004	1.963114e-003	9.864410e-001	-1.043180e-001	4.876527e-003	4.387513e-002
	1.948603e-004	1.960685e-003	2.335757e-003	-3.361337e-003	4.899883e-003	4.386880e-002	9.852754e-001	-1.042798e-001
	9.857037e-001	-1.039964e-001	4.902204e-003	4.386725e-002	-1.043265e-005	-3.102308e-003	1.973489e-004	1.950473e-003
	4.868999e-003	4.384214e-002	9.856613e-001	-1.043604e-001	2.189287e-004	1.957137e-003	2.518010e-003	-3.204299e-003
35000000	2.469659e-004	-3.954742e-003	3.280768e-004	2.298054e-003	9.841223e-001	-1.213777e-001	6.564506e-003	5.103110e-002
	3.317635e-004	2.275722e-003	2.337390e-003	-3.940202e-003	6.577316e-003	5.102795e-002	9.828670e-001	-1.213470e-001
	9.833505e-001	-1.209505e-001	6.570437e-003	5.103359e-002	-4.417642e-005	-3.807486e-003	3.389955e-004	2.273494e-003
	6.543906e-003	5.099917e-002	9.832839e-001	-1.214580e-001	3.557613e-004	2.283404e-003	2.518401e-003	-4.110801e-003
40000000	1.216016e-004	-4.453017e-003	4.568492e-004	2.606716e-003	9.814670e-001	-1.383623e-001	8.490283e-003	5.812287e-002
	4.498851e-004	2.587445e-003	2.142221e-003	-4.471062e-003	8.511172e-003	5.812105e-002	9.802462e-001	-1.382859e-001
	9.806329e-001	-1.378895e-001	8.502819e-003	5.813243e-002	-3.469349e-005	-4.366552e-003	4.947535e-004	2.587279e-003
	8.463802e-003	5.808649e-002	9.805501e-001	-1.384122e-001	4.946783e-004	2.606578e-003	2.378350e-003	-4.762203e-003
45000000	-7.532773e-005	-4.976799e-003	6.113608e-004	2.898314e-003	9.783654e-001	-1.551315e-001	1.064723e-002	6.514980e-002
	5.907791e-004	2.862189e-003	1.764670e-003	-4.980798e-003	1.068130e-002	6.514525e-002	9.771221e-001	-1.551048e-001
	9.777003e-001	-1.547155e-001	1.067366e-002	6.515536e-002	-2.003905e-004	-4.994156e-003	6.550050e-004	2.872288e-003
	1.062279e-002	6.511187e-002	9.774433e-001	-1.552357e-001	6.470452e-004	2.909746e-003	2.077971e-003	-5.302810e-003
50000000	-1.762613e-004	-5.681513e-003	7.828966e-004	3.180074e-003	9.749891e-001	-1.718350e-001	1.304604e-002	7.210647e-002
	7.739734e-004	3.144218e-003	1.365683e-003	-5.600070e-003	1.309345e-002	7.209660e-002	9.738101e-001	-1.718894e-001
	9.744320e-001	-1.714327e-001	1.308697e-002	7.210920e-002	-3.833878e-004	-5.625964e-003	8.302075e-004	3.151031e-003
	1.303010e-002	7.206340e-002	9.740419e-001	-1.719388e-001	8.243576e-004	3.174499e-003	1.676596e-003	-5.684176e-003
55000000	-3.615070e-004	-6.139778e-003	9.652645e-004	3.457463e-003	9.711170e-001	-1.883974e-001	1.568099e-002	7.895660e-002
	9.556309e-004	3.405229e-003	9.721544e-004	-6.116814e-003	1.573507e-002	7.895044e-002	9.699300e-001	-1.884954e-001
	9.707130e-001	-1.879908e-001	1.573167e-002	7.895858e-002	-5.014778e-004	-6.143394e-003	1.011980e-003	3.429101e-003
	1.565637e-002	7.891405e-002	9.702152e-001	-1.885267e-001	9.905346e-004	3.445235e-003	1.334595e-003	-6.047502e-003
60000000	-3.560010e-004	-6.567081e-003	1.148685e-003	3.721309e-003	9.670956e-001	-2.049482e-001	1.854533e-002	8.574653e-002
	1.132984e-003	3.692901e-003	8.060323e-004	-6.583679e-003	1.862101e-002	8.572195e-002	9.658207e-001	-2.050316e-001
	9.666447e-001	-2.044871e-001	1.860642e-002	8.573970e-002	-6.648372e-004	-6.697921e-003	1.210305e-003	3.685266e-003
	1.852366e-002	8.569374e-002	9.660974e-001	-2.050706e-001	1.179451e-003	3.732392e-003	1.073885e-003	-6.359410e-003
65000000	-6.327337e-004	-7.067804e-003	1.350975e-003	3.997581e-003	9.627897e-001	-2.212995e-001	2.164693e-002	9.242990e-002
	1.338465e-003	3.953296e-003	6.722322e-004	-7.036582e-003	2.173376e-002	9.239535e-002	9.614044e-001	-2.214896e-001
	9.622543e-001	-2.208981e-001	2.171854e-002	9.241231e-002	-8.215452e-004	-7.299876e-003	1.413398e-003	3.948913e-003
	2.162144e-002	9.236230e-002	9.616585e-001	-2.215245e-001	1.380768e-003	3.983520e-003	8.246112e-004	-6.718756e-003
70000000	-6.813329e-004	-7.788890e-003	1.592839e-003	4.270911e-003	9.579193e-001	-2.375003e-001	2.497178e-002	9.898724e-002
	1.582275e-003	4.239423e-003	6.550697e-004	-7.685744e-003	2.506983e-002	9.895448e-002	9.565112e-001	-2.377374e-001
	9.573456e-001	-2.370755e-001	2.505701e-002	9.896384e-002	-1.001088e-003	-7.990106e-003	1.647514e-003	4.204423e-003
	2.494191e-002	9.890633e-002	9.567555e-001	-2.377671e-001	1.629791e-003	4.243846e-003	5.599002e-004	-7.198930e-003
75000000	-8.279763e-004	-8.449016e-003	1.886210e-003	4.552921e-003	9.527967e-001	-2.536822e-001	2.852379e-002	1.054351e-001
	1.895164e-003	4.523122e-003	7.764201e-004	-8.425664e-003	2.863324e-002	1.053963e-001	9.513808e-001	-2.538701e-001
	9.522001e-001	-2.531595e-001	2.861574e-002	1.054167e-001	-1.131004e-003	-8.641276e-003	1.951991e-003	4.456576e-003
	2.848537e-002	1.053492e-001	9.515664e-001	-2.539583e-001	1.935704e-003	4.524353e-003	5.569639e-004	-7.879753e-003
80000000	-8.801571e-004	-9.399694e-003	2.248486e-003	4.840608e-003	9.473915e-001	-2.697041e-001	3.230436e-002	1.117756e-001
	2.252012e-003	4.841656e-003	8.502455e-004	-9.228149e-003	3.242786e-002	1.117254e-001	9.460273e-001	-2.698904e-001
	9.468471e-001	-2.692034e-001	3.241028e-002	1.117542e-001	-1.490012e-003	-9.302231e-003	2.258821e-003	4.728441e-003
	3.225714e-002	1.116813e-001	9.462179e-001	-2.700662e-001	2.254873e-003	4.759348e-003	6.157561e-004	-8.566408e-003
85000000	-1.065374e-003	-1.015817e-002	2.599896e-003	5.127928e-003	9.417170e-001	-2.855506e-001	3.629754e-002	1.179797e-001
	2.617629e-003	5.091793e-003	8.678192e-004	-9.961204e-003	3.642611e-002	1.179305e-001	9.403221e-001	-2.858751e-001
	9.411092e-001	-2.851871e-001	3.641473e-002	1.179619e-001	-1.614896e-003	-9.964331e-003	2.612662e-003	4.960994e-003
	3.623790e-002	1.178838e-001	9.404694e-001	-2.859476e-001	2.582631e-003	5.033853e-003	4.736852e-004	-9.280432e-003
90000000	-1.450702e-003	-1.090537e-002	2.991188e-003	5.315969e-003	9.356459e-001	-3.012205e-001	4.048714e-002	1.240519e-001
	3.002578e-003	5.316015e-003	6.375644e-004	-1.076278e-002	4.062562e-002	1.239929e-001	9.342556e-001	-3.015571e-001
	9.350775e-001	-3.008296e-001	4.062255e-002	1.240425e-001	-1.910286e-003	-1.074826e-002	2.975777e-003	5.203194e-003
	4.043041e-002	1.239598e-001	9.345087e-001	-3.016475e-001	2.977361e-003	5.247203e-003	3.325713e-004	-1.012096e-002
95000000	-1.787691e-003	-1.156467e-002	3.361840e-003	5.527088e-003	9.293493e-001	-3.168078e-001	4.488403e-002	1.299874e-001
	3.377936e-003	5.541863e-003	4.332677e-004	-1.150979e-002	4.503744e-002	1.299135e-001	9.279850e-001	-3.171170e-001
	9.287826e-001	-3.163093e-001	4.502541e-002	1.299688e-001	-2.185345e-003	-1.128870e-002	3.362313e-003	5.429815e-003
	4.481093e-002	1.298945e-001	9.282336e-001	-3.172292e-001	3.363993e-003	5.428948e-003	3.561964e-005	-1.101641e-002
100000000	-2.157256e-003	-1.221658e-002	3.803911e-003	5.682112e-003	9.227507e-001	-3.321236e-001	4.948891e-002	1.357952e-001
	3.798471e-003	5.718702e-003	-4.853310e-005	-1.227367e-002	4.964569e-002	1.357059e-001	9.214612e-001	-3.325376e-001
	9.222469e-001	-3.316729e-001	4.963983e-002	1.357522e-001	-2.491245e-003	-1.191697e-002	3.806508e-003	5.612546e-003
	4.940568e-002	1.356967e-001	9.216737e-001	-3.325781e-001	3.811196e-003	5.609553e-003	-3.079608e-004	-1.197717e-002
105000000	-2.727370e-003	-1.277473e-002	4.194109e-003	5.749386e-003	9.159046e-001	-3.472582e-001	5.428290e-002	1.414350e-001
	4.215272e-003	5.805171e-003	-7.276128e-004	-1.295542e-002	5.443277e-002	1.413369e-001	9.145699e-001	-3.477604e-001
	9.153672e-001	-3.468267e-001	5.444452e-002	1.413832e-001	-2.777475e-003	-1.242506e-002	4.255167e-003	5.725889e-003
	5.419072e-002	1.413363e-001	9.148001e-001	-3.477787e-001	4.214793e-003	5.767331e-003	-7.263186e-004	-1.280727e-002
110000000	-3.244549e-003	-1.322885e-002	4.610629e-003	5.869392e-003	9.087288e-001	-3.622497e-001	5.923212e-002	1.469038e-001
	4.555511e-003	5.857752e-003	-1.309093e-003	-1.351068e-002	5.941724e-002	1.467867e-001	9.073413e-001	-3.627680e-001
	9.082691e-001	-3.619026e-001	5.942813e-002	1.468552e-001	-3.537523e-003	-1.331687e-002	4.707479e-003	5.828839e-003
	5.915568e-002	1.468128e-001	9.076209e-001	-3.627737e-001	4.741856e-003	5.797959e-003	-1.306824e-003	-1.355985e-002
115000000	-4.009480e-003	-1.351671e-002	4.954940e-003	5.845528e-003	9.013675e-001	-3.770935e-001	6.439370e-002	1.522398e-001
	4.901740e-003	5.846453e-003	-2.279893e-003	-1.404568e-002	6.460552e-002	1.521148e-001	8.999862e-001	-3.776342e-001
	9.009654e-001	-3.768422e-001	6.460821e-002	1.521854e-001	-4.062810e-003	-1.428672e-002	5.218116e-003	5.894041e-003
	6.432352e-002	1.521470e-001	9.002012e-001	-3.776723e-001	5.221011e-003	5.888479e-003	-1.913035e-003	-1.420481e-002
120000000	-4.757031e-003	-1.385087e-002	5.333251e-003	5.772458e-003	8.938518e-001	-3.917663e-001	6.973388e-002	1.574125e-001
	5.268598e-003	5.736047e-003	-3.388204e-003	-1.437643e-002	6.997583e-002	1.572905e-001	8.923428e-001	-3.924121e-001
	8.934390e-001	-3.916185e-001	6.998218e-002	1.573673e-001	-4.787310e-003	-1.519277e-002	5.695809e-003	5.917113e-003
	6.966552e-002	1.573311e-001	8.926095e-001	-3.924219e-001	5.745716e-003	5.885781e-003	-2.480704e-003	-1.460480e-002
125000000	-5.406241e-003	-1.424683e-002	5.674732e-003	5.750030e-003	8.860007e-001	-4.063030e-001	7.522950e-002	1.624223e-001
	5.615091e-003	5.715639e-003	-4.252017e-003	-1.474131e-002	7.551320e-002	1.622919e-001	8.844774e-001	-4.068506e-001
	8.856359e-001	-4.061892e-001	7.552378e-002	1.623705e-001	-5.302308e-003	-1.589624e-002	6.184228e-003	5.876392e-003
	7.518542e-002	1.623285e-001	8.847436e-001	-4.069709e-001	6.224399e-003	5.951744e-003	-3.276781e-003	-1.501032e-002
130000000	-5.609919e-003	-1.483131e-002	6.010989e-003	5.857275e-003	8.778285e-001	-4.205216e-001	8.089006e-002	1.672395e-001
	5.986587e-003	5.829779e-003	-4.739077e-003	-1.471137e-002	8.119059e-002	1.671081e-001	8.762837e-001	-4.211079e-001
	8.774374e-001	-4.203477e-001	8.120878e-002	1.671801e-001	-5.913210e-003	-1.618386e-002	6.534016e-003	5.885422e-003
	8.084030e-002	1.671430e-001	8.765237e-001	-4.212423e-001	6.586855e-003	5.923576e-003	-3.822593e-003	-1.527722e-002
135000000	-5.371708e-003	-1.555525e-002	6.394325e-003	6.135042e-003	8.694854e-001	-4.347319e-001	8.672004e-002	1.718996e-001
	6.337660e-003	6.066535e-003	-4.765971e-003	-1.462829e-002	8.705729e-002	1.717624e-001	8.678408e-001	-4.351751e-001
	8.689270e-001	-4.343921e-001	8.705319e-002	1.718076e-001	-6.296091e-003	-1.592277e-002	6.788998e-003	5.874756e-003
	8.667711e-002	1.717937e-001	8.680684e-001	-4.353428e-001	6.783673e-003	5.944296e-003	-4.457760e-003	-1.536310e-002
140000000	-4.943633e-003	-1.626187e-002	6.707516e-003	6.513417e-003	8.609595e-001	-4.487639e-001	9.273386e-002	1.763838e-001
	6.696618e-003	6.428826e-003	-4.530985e-003	-1.422125e-002	9.308696e-002	1.762211e-001	8.592306e-001	-4.490868e-001
	8.602962e-001	-4.482342e-001	9.306269e-002	1.762424e-001	-6.698059e-003	-1.541994e-002	6.942917e-003	5.852694e-003
	9.266594e-002	1.762673e-001	8.593242e-001	-4.493911e-001	6.946649e-003	5.950202e-003	-5.029900e-003	-1.523304e-002
145000000	-4.633139e-003	-1.707566e-002	7.010225e-003	6.911120e-003	8.520937e-001	-4.625197e-001	9.892934e-002	1.806084e-001
	7.016920e-003	6.827826e-003	-4.360721e-003	-1.397381e-002	9.929196e-002	1.804415e-001	8.503039e-001	-4.626691e-001
	8.513072e-001	-4.617233e-001	9.925679e-002	1.804448e-001	-7.047888e-003	-1.496314e-002	6.999480e-003	5.818284e-003
	9.887257e-002	1.804773e-001	8.504124e-001	-4.630955e-001	7.021311e-003	5.912767e-003	-5.547029e-003	-1.521964e-002
150000000	-4.593743e-003	-1.753027e-002	7.377479e-003	7.067661e-003	8.429873e-001	-4.760740e-001	1.051283e-001	1.847252e-001
	7.395236e-003	6.972968e-003	-4.528043e-003	-1.383165e-002	1.055102e-001	1.845393e-001	8.412082e-001	-4.760567e-001
	8.421476e-001	-4.750957e-001	1.054625e-001	1.845116e-001	-7.548538e-003	-1.462286e-002	7.320877e-003	5.753239e-003
	1.050622e-001	1.845952e-001	8.412351e-001	-4.766032e-001	7.281533e-003	5.855823e-003	-6.312662e-003	-1.534729e-002
155000000	-5.227300e-003	-1.780892e-002	7.825693e-003	6.996797e-003	8.335354e-001	-4.891490e-001	1.114891e-001	1.885814e-001
	7.827778e-003	6.885482e-003	-5.120815e-003	-1.428207e-002	1.119075e-001	1.883790e-001	8.317316e-001	-4.891158e-001
	8.326886e-001	-4.881341e-001	1.118571e-001	1.883464e-001	-8.343029e-003	-1.486129e-002	7.691653e-003	5.612445e-003
	1.114147e-001	1.884455e-001	8.317440e-001	-4.896380e-001	7.639488e-003	5.674276e-003	-6.991299e-003	-1.561030e-002
160000000	-6.298065e-003	-1.795665e-002	8.277754e-003	6.668257e-003	8.238590e-001	-5.020235e-001	1.180419e-001	1.922399e-001
	8.297205e-003	6.519111e-003	-6.075277e-003	-1.501432e-002	1.184924e-001	1.920071e-001	8.220077e-001	-5.021665e-001
	8.231394e-001	-5.010608e-001	1.184435e-001	1.919936e-001	-9.049318e-003	-1.536164e-002	8.211658e-003	5.434077e-003
	1.179639e-001	1.921079e-001	8.220760e-001	-5.025768e-001	8.156269e-003	5.562285e-003	-7.606368e-003	-1.603698e-002
165000000	-7.565946e-003	-1.804531e-002	8.835015e-003	6.240709e-003	8.140520e-001	-5.147904e-001	1.246994e-001	1.957379e-001
	8.850331e-003	6.094829e-003	-7.193350e-003	-1.596910e-002	1.251232e-001	1.954755e-001	8.122434e-001	-5.150220e-001
	8.135383e-001	-5.138306e-001	1.251024e-001	1.954745e-001	-9.774398e-003	-1.594059e-002	8.816845e-003	5.187322e-003
	1.245720e-001	1.956107e-001	8.122968e-001	-5.153377e-001	8.740600e-003	5.302987e-003	-8.199908e-003	-1.657219e-002
170000000	-8.909143e-003	-1.813493e-002	9.401369e-003	5.668718e-003	8.041224e-001	-5.271770e-001	1.315124e-001	1.990270e-001
	9.438284e-003	5.568806e-003	-8.414998e-003	-1.702458e-002	1.319240e-001	1.987504e-001	8.021484e-001	-5.277141e-001
	8.036529e-001	-5.263860e-001	1.319350e-001	1.987538e-001	-1.062539e-002	-1.671649e-002	9.436372e-003	4.913563e-003
	1.313466e-001	1.989134e-001	8.023522e-001	-5.278479e-001	9.348603e-003	5.042653e-003	-8.937599e-003	-1.712658e-002
175000000	-1.030005e-002	-1.802065e-002	9.939230e-003	5.076963e-003	7.938844e-001	-5.393420e-001	1.383643e-001	2.021055e-001
	9.967862e-003	5.058023e-003	-9.541092e-003	-1.793231e-002	1.388037e-001	2.017865e-001	7.918894e-001	-5.399888e-001
	7.935132e-001	-5.387112e-001	1.388247e-001	2.018166e-001	-1.143104e-002	-1.739390e-002	1.008299e-002	4.657952e-003
	1.382250e-001	2.019706e-001	7.921725e-001	-5.400241e-001	9.996173e-003	4.782736e-003	-9.450824e-003	-1.763973e-002
180000000	-1.139090e-002	-1.813103e-002	1.042284e-002	4.696155e-003	7.832631e-001	-5.512289e-001	1.452810e-001	2.049031e-001
	1.047879e-002	4.642302e-003	-1.038250e-002	-1.840898e-002	1.457395e-001	2.045703e-001	7.813022e-001	-5.518238e-001
	7.830652e-001	-5.505016e-001	1.457531e-001	2.046125e-001	-1.224419e-002	-1.774842e-002	1.059294e-002	4.437637e-003
	1.451154e-001	2.047959e-001	7.815693e-001	-5.518440e-001	1.052563e-002	4.472531e-003	-9.957622e-003	-1.794649e-002
185000000	-1.215856e-002	-1.830523e-002	1.094974e-002	4.398140e-003	7.725805e-001	-5.627302e-001	1.522795e-001	2.075202e-001
	1.095844e-002	4.343562e-003	-1.103753e-002	-1.878635e-002	1.527442e-001	2.071441e-001	7.705500e-001	-5.634480e-001
	7.723535e-001	-5.621248e-001	1.527727e-001	2.071990e-001	-1.280020e-002	-1.801678e-002	1.105066e-002	4.219399e-003
	1.521108e-001	2.074006e-001	7.708199e-001	-5.634433e-001	1.099682e-002	4.269148e-003	-1.064769e-002	-1.807639e-002
190000000	-1.277755e-002	-1.851407e-002	1.136502e-002	4.163005e-003	7.617604e-001	-5.743477e-001	1.594311e-001	2.099265e-001
	1.144192e-002	4.117997e-003	-1.151177e-002	-1.891836e-002	1.599335e-001	2.095465e-001	7.597302e-001	-5.749547e-001
	7.615814e-001	-5.736565e-001	1.599598e-001	2.096012e-001	-1.350826e-002	-1.814150e-002	1.148569e-002	3.977729e-003
	1.592532e-001	2.098346e-001	7.600111e-001	-5.750081e-001	1.140593e-002	3.938093e-003	-1.111069e-002	-1.816372e-002
195000000	-1.333823e-002	-1.868040e-002	1.185719e-002	3.892588e-003	7.508959e-001	-5.856610e-001	1.667019e-001	2.121933e-001
	1.186964e-002	3.913363e-003	-1.205276e-002	-1.895566e-002	1.672239e-001	2.117790e-001	7.488485e-001	-5.863526e-001
	7.506662e-001	-5.850173e-001	1.672436e-001	2.118282e-001	-1.410944e-002	-1.821922e-002	1.195231e-002	3.698167e-003
	1.665269e-001	2.120803e-001	7.490696e-001	-5.863317e-001	1.189552e-002	3.705790e-003	-1.163276e-002	-1.826567e-002
200000000	-1.389745e-002	-1.885035e-002	1.225794e-002	3.692538e-003	7.398835e-001	-5.968399e-001	1.740379e-001	2.142353e-001
	1.230453e-002	3.692151e-003	-1.251562e-002	-1.891218e-002	1.745993e-001	2.137898e-001	7.378173e-001	-5.974670e-001
	7.396532e-001	-5.962394e-001	1.746011e-001	2.138459e-001	-1.476518e-002	-1.820726e-002	1.233462e-002	3.434027e-003
	1.738910e-001	2.141291e-001	7.380204e-001	-5.975455e-001	1.230263e-002	3.423662e-003	-1.218657e-002	-1.821528e-002
205000000	-1.441783e-002	-1.896290e-002	1.271005e-002	3.515386e-003	7.287332e-001	-6.077941e-001	1.814533e-001	2.160606e-001
	1.262979e-002	3.473553e-003	-1.298127e-002	-1.884314e-002	1.820498e-001	2.155958e-001	7.266016e-001	-6.083689e-001
	7.284567e-001	-6.071549e-001	1.820525e-001	2.156385e-001	-1.522874e-002	-1.840523e-002	1.269482e-002	3.080090e-003
	1.813105e-001	2.159749e-001	7.268109e-001	-6.084352e-001	1.267495e-002	3.164435e-003	-1.280827e-002	-1.820575e-002
210000000	-1.495811e-002	-1.907715e-002	1.308595e-002	3.239478e-003	7.173826e-001	-6.183396e-001	1.888907e-001	2.176574e-001
	1.302489e-002	3.168313e-003	-1.365717e-002	-1.867061e-002	1.895136e-001	2.171519e-001	7.152148e-001	-6.188724e-001
